! Touchstone file exported from HFSS 2020.1.0
!        File:           D:/demo/ArrayModule_4x2_28G.aedt
!        Generated:      9:04:53 AM  Jun 01, 2020
!        Design:         HFSSDesign2
!        Project:        ArrayModule_4x2_28G
!        Setup:          Setup1
!        Solution:       Sweep
!
! Variables:
!        dang = 90deg
!
# GHZ S MA R 50.000000
! Terminal data exported
! Port[1] = 4x2_array1_Module_0_Bump_h1
! Port[2] = 4x2_array1_Module_0_Bump_h2
! Port[3] = 4x2_array1_Module_0_Bump_h3
! Port[4] = 4x2_array1_Module_0_Bump_h4
! Port[5] = 4x2_array1_Module_0_Bump_v1
! Port[6] = 4x2_array1_Module_0_Bump_v2
! Port[7] = 4x2_array1_Module_0_Bump_v3
! Port[8] = 4x2_array1_Module_0_Bump_v4
! Port[9] = 4x2_array1_Module_1_Bump_h5
! Port[10] = 4x2_array1_Module_1_Bump_h6
! Port[11] = 4x2_array1_Module_1_Bump_h7
! Port[12] = 4x2_array1_Module_1_Bump_h8
! Port[13] = 4x2_array1_Module_1_Bump_v5
! Port[14] = 4x2_array1_Module_1_Bump_v6
! Port[15] = 4x2_array1_Module_1_Bump_v7
! Port[16] = 4x2_array1_Module_1_Bump_v8
26                             0.133790130603994 -39.8954778219892 0.169087668992115 100.008284502601 0.00447331692269015 57.897485781771  0.0458862252975637 3.5508298423927  
                0.1255107932083  -86.5349578719398 0.0674128487023271 -83.784572719966 0.0272007578762494 -17.8172247847716 0.0511851559256693 -179.37731787256 
                0.137721780274247 110.341073405549 0.142788892608105 -67.7358811729383 0.0909279058556447 141.689929736921 0.0469193930037412 -23.5727025274234 
                0.124174803540378 -154.351122574988 0.0689413128752076 96.5898803405697 0.0510891921932058 -37.9633978473408 0.0387420990193723 153.698549622825 
                0.169087668992115 100.0082845026   0.109855557405347 -25.9604050545711 0.155402472849823 99.8114806820092 0.00599985449184461 1.0875719957253  
                0.0731790928149344 52.1763968660156 0.220149113898375 -85.3085142212857 0.0589606815088013 -122.160007064701 0.027375924489889 -17.4040777869501 
                0.150219835489406 -14.4882624790526 0.139137900424864 122.478018826052 0.112366512571434 -56.7670083833977 0.0797561320390338 155.053185847221 
                0.0693285080146444 38.5763543901662 0.148937955381409 177.171711499191 0.0761840652161656 65.8088987251144 0.0483091350338754 -37.3225522137747 
                0.00447331692269015 57.897485781771  0.155402472849822 99.8114806820092 0.121729715807609 -28.30198735078  0.196392488573613 101.290012904763 
                0.0709631602305207 -34.3582099890534 0.0638028777600842 69.0449492850331 0.219551981982565 -86.0576833971851 0.0669426051426786 -82.3547456666218 
                0.0371311211838573 -125.542401105974 0.142558892760191 -6.24254203931071 0.12143504527788 124.945060584487 0.13674563090889 -58.2621678877341 
                0.0809596089365175 -110.919074190213 0.103771073939799 29.0602020833736 0.158320520603638 179.197645682936 0.0716672576716744 86.5986501401945 
                0.0458862252975637 3.55082984239271 0.0059998544918445 1.08757199572532 0.196392488573613 101.290012904763 0.153882040702568 -58.3834264383201 
                0.0636688798210462 -166.287081280053 0.071166792731503 -34.2286633116496 0.0746304094296144 51.5754743893297 0.121199261501049 -88.3498929135341 
                0.0263080558328191 -125.78875351756 0.0510007474686297 -105.876521779018 0.153391844615425 -5.18629874228692 0.139640704878927 113.034855008415 
                0.0657766212280163 101.329092945939 0.0850071011494868 -109.996633078723 0.0864786368980625 35.4726922044863 0.116933516982485 -170.466873909599 
                0.1255107932083  -86.5349578719398 0.0731790928149345 52.1763968660154 0.0709631602305207 -34.3582099890534 0.0636688798210462 -166.287081280053 
                0.153997821185809 -58.5665804611125 0.197009283402144 101.176406527639 0.00624475543222942 3.13150929680636 0.0460121375753789 3.85172260257423 
                0.117913830888482 -171.069418878339 0.0874851109132148 35.11183599846   0.086238941555263 -110.178782145094 0.0664783770328422 100.959859692945 
                0.1388685614773  113.223716706808 0.152827320579819 -5.43326202861335 0.0508410626179328 -106.095888214027 0.026536543553274 -125.575417823414 
                0.0674128487023272 -83.7845727199661 0.220149113898376 -85.3085142212857 0.0638028777600843 69.0449492850331 0.071166792731503 -34.2286633116497 
                0.197009283402144 101.176406527639 0.124478712098359 -27.6736455018204 0.155298308231258 99.832330378671  0.00356672693167784 62.2662935640634 
                0.0724136666851922 86.2276424433654 0.157441236153588 179.6083734585   0.103677262480948 29.3839647579175 0.0810182439525732 -110.962913789224 
                0.1362786783035  -58.1392519588749 0.12001855005804 124.980895149213 0.142657283101611 -6.291318291666  0.036832803568063 -126.115631885587 
                0.0272007578762494 -17.8172247847716 0.0589606815088009 -122.160007064701 0.219551981982565 -86.0576833971851 0.0746304094296144 51.5754743893297 
                0.00624475543222941 3.13150929680639 0.155298308231258 99.832330378671  0.112603746871056 -24.807743448684 0.168100631239733 100.178739343477 
                0.0483724164268831 -37.050452073452 0.0758217255415367 65.8599574672902 0.149662585346449 177.228595524996 0.0692113754950877 38.3402813589183 
                0.0798078853119865 155.883381631307 0.112203679908221 -56.479050365836 0.140286660367984 122.5828048726   0.150036182341285 -14.6706243608592 
                0.0511851559256693 -179.37731787256 0.0273759244898889 -17.4040777869503 0.0669426051426785 -82.3547456666218 0.121199261501049 -88.3498929135341 
                0.0460121375753788 3.85172260257424 0.00356672693167784 62.2662935640631 0.168100631239733 100.178739343477 0.138152093812985 -39.6341929234878 
                0.0392466392611545 154.29775326654  0.0509360634156579 -37.8874650168607 0.0682153077304627 97.0861812635399 0.124085418576378 -153.95015697631 
                0.0473105719654841 -22.8013043739603 0.0912649440074521 141.775030325224 0.143439446230067 -67.6973082134883 0.138488242403973 110.455428239373 
                0.137721780274247 110.341073405549 0.150219835489407 -14.4882624790525 0.0371311211838573 -125.542401105974 0.0263080558328191 -125.78875351756 
                0.117913830888482 -171.069418878339 0.0724136666851922 86.2276424433654 0.0483724164268831 -37.050452073452 0.0392466392611545 154.29775326654  
                0.137652520146704 -48.873418837876 0.187146416316718 96.5003504536224 0.0228445812388054 -86.572710826609 0.0439981591579219 25.1284997280463 
                0.130077217120433 -81.6664134802956 0.127118419871004 -81.8670475192651 0.021940488712915 42.2873899326292 0.0643480429115131 -136.975207864492 
                0.142788892608105 -67.7358811729383 0.139137900424864 122.478018826052 0.142558892760191 -6.24254203931071 0.0510007474686297 -105.876521779018 
                0.0874851109132148 35.11183599846   0.157441236153588 179.6083734585   0.0758217255415367 65.8599574672902 0.0509360634156579 -37.8874650168607 
                0.187146416316718 96.5003504536224 0.143563277955185 -40.7808073696184 0.161802004861231 100.275290096042 0.00578376066422273 -173.432220700196 
                0.0501732185872346 61.4546929452163 0.221517832496835 -85.9877151599346 0.101737696110417 -87.3728778437516 0.0220215294322838 41.9238320566258 
                0.0909279058556447 141.689929736921 0.112366512571434 -56.7670083833977 0.12143504527788 124.945060584487 0.153391844615425 -5.18629874228692 
                0.086238941555263 -110.178782145094 0.103677262480948 29.3839647579175 0.149662585346449 177.228595524996 0.0682153077304627 97.0861812635399 
                0.0228445812388054 -86.572710826609 0.161802004861231 100.275290096042 0.125469940725999 -31.9158361990469 0.184281235810212 105.392669458313 
                0.0443974921229195 -11.2608612772977 0.0606255813129583 83.0190215907135 0.223181017283248 -86.3661498501439 0.127051405195139 -81.7804728559899 
                0.0469193930037412 -23.5727025274234 0.0797561320390339 155.053185847221 0.13674563090889 -58.2621678877341 0.139640704878927 113.034855008415 
                0.0664783770328421 100.959859692945 0.0810182439525732 -110.962913789224 0.0692113754950877 38.3402813589183 0.124085418576378 -153.95015697631 
                0.0439981591579219 25.1284997280463 0.00578376066422273 -173.432220700196 0.184281235810212 105.392669458313 0.201695803787363 -61.3688429535313 
                0.0298080125649379 -137.46607111194 0.044239343929123 -12.2711217423558 0.0506559936806647 61.4328412144832 0.12975385802787 -82.2521478498647 
                0.124174803540378 -154.351122574988 0.0693285080146441 38.576354390166  0.0809596089365175 -110.919074190213 0.0657766212280163 101.329092945939 
                0.1388685614773  113.223716706808 0.1362786783035  -58.1392519588749 0.0798078853119865 155.883381631307 0.0473105719654841 -22.8013043739603 
                0.130077217120433 -81.6664134802956 0.0501732185872346 61.4546929452163 0.0443974921229195 -11.2608612772977 0.0298080125649379 -137.46607111194 
                0.209296358095492 -58.9755552290175 0.183978874980062 105.527089442749 0.0057354483603548 -175.84617482183 0.0437264872328062 25.1807990899513 
                0.0689413128752077 96.5898803405697 0.148937955381409 177.171711499191 0.103771073939799 29.0602020833735 0.0850071011494868 -109.996633078723 
                0.152827320579819 -5.43326202861335 0.12001855005804 124.980895149213 0.112203679908221 -56.479050365836 0.091264944007452 141.775030325224 
                0.127118419871004 -81.8670475192651 0.221517832496835 -85.9877151599346 0.0606255813129583 83.0190215907135 0.044239343929123 -12.2711217423558 
                0.183978874980062 105.527089442749 0.124724527487177 -31.7418389429433 0.161708914094238 100.228573911499 0.0228813510271498 -86.8101274298343 
                0.0510891921932058 -37.9633978473408 0.0761840652161656 65.8088987251145 0.158320520603638 179.197645682936 0.0864786368980624 35.4726922044863 
                0.0508410626179328 -106.095888214027 0.142657283101611 -6.291318291666  0.140286660367984 122.5828048726   0.143439446230067 -67.6973082134883 
                0.021940488712915 42.2873899326292 0.101737696110417 -87.3728778437516 0.223181017283248 -86.3661498501439 0.0506559936806647 61.4328412144832 
                0.0057354483603548 -175.84617482183 0.161708914094238 100.228573911499 0.143611414842164 -41.7245795631828 0.18568508506149 95.5373961365927 
                0.0387420990193724 153.698549622825 0.0483091350338752 -37.3225522137748 0.0716672576716744 86.5986501401945 0.116933516982485 -170.466873909599 
                0.026536543553274 -125.575417823414 0.036832803568063 -126.115631885587 0.150036182341285 -14.6706243608592 0.138488242403972 110.455428239374 
                0.0643480429115131 -136.975207864492 0.0220215294322838 41.9238320566258 0.127051405195139 -81.7804728559899 0.12975385802787 -82.2521478498647 
                0.0437264872328062 25.1807990899513 0.0228813510271498 -86.8101274298344 0.18568508506149 95.5373961365927 0.133315035442216 -47.1526599449939 
! Gamma         0                0                0                0                0                0                0                0                
!               0                0                0                0                0                0                0                0                
!               0                0                0                0                0                0                0                0                
!               0                0                0                0                0                0                0                0                
!               0                0                0                0                0                0                0                0                
!               0                0                0                0                0                0                0                0                
!               0                0                0                0                0                0                0                0                
!               0                0                0                0                0                0                0                0                
!               0                0                0                0                0                0                0                0                
!               0                0                0                0                0                0                0                0                
!               0                0                0                0                0                0                0                0                
!               0                0                0                0                0                0                0                0                
!               0                0                0                0                0                0                0                0                
!               0                0                0                0                0                0                0                0                
!               0                0                0                0                0                0                0                0                
!               0                0                0                0                0                0                0                0                
!               0                0                0                0                0                0                0                0                
!               0                0                0                0                0                0                0                0                
!               0                0                0                0                0                0                0                0                
!               0                0                0                0                0                0                0                0                
!               0                0                0                0                0                0                0                0                
!               0                0                0                0                0                0                0                0                
!               0                0                0                0                0                0                0                0                
!               0                0                0                0                0                0                0                0                
!               0                0                0                0                0                0                0                0                
!               0                0                0                0                0                0                0                0                
!               0                0                0                0                0                0                0                0                
!               0                0                0                0                0                0                0                0                
!               0                0                0                0                0                0                0                0                
!               0                0                0                0                0                0                0                0                
!               0                0                0                0                0                0                0                0                
!               0                0                0                0                0                0                0                0                
!               0                0                0                0                0                0                0                0                
!               0                0                0                0                0                0                0                0                
!               0                0                0                0                0                0                0                0                
!               0                0                0                0                0                0                0                0                
!               0                0                0                0                0                0                0                0                
!               0                0                0                0                0                0                0                0                
!               0                0                0                0                0                0                0                0                
!               0                0                0                0                0                0                0                0                
!               0                0                0                0                0                0                0                0                
!               0                0                0                0                0                0                0                0                
!               0                0                0                0                0                0                0                0                
!               0                0                0                0                0                0                0                0                
!               0                0                0                0                0                0                0                0                
!               0                0                0                0                0                0                0                0                
!               0                0                0                0                0                0                0                0                
!               0                0                0                0                0                0                0                0                
!               0                0                0                0                0                0                0                0                
!               0                0                0                0                0                0                0                0                
!               0                0                0                0                0                0                0                0                
!               0                0                0                0                0                0                0                0                
!               0                0                0                0                0                0                0                0                
!               0                0                0                0                0                0                0                0                
!               0                0                0                0                0                0                0                0                
